
T9AFC 000:604 SEGGER J-Link V4.78e Log File (0001ms, 0294ms total)
T9AFC 000:604 DLL Compiled: Oct 25 2013 11:30:56 (0001ms, 0294ms total)
T9AFC 000:604 Logging started @ 2013-12-16 19:33 (0001ms, 0294ms total)
T9AFC 000:605 JLINK_SetWarnOutHandler(...) (0000ms, 0294ms total)
T9AFC 000:605 JLINK_OpenEx(...)
Firmware: J-Link ARM V8 compiled Sep 20 2013 15:09:45
Hardware: V8.00
S/N: 268006120
OEM: SEGGER-EDU
Feature(s): FlashBP, GDB  returns O.K. (0290ms, 0584ms total)
T9AFC 000:895 JLINK_SetErrorOutHandler(...) (0000ms, 0584ms total)
T9AFC 000:895 JLINK_ExecCommand("ProjectFile = "C:\Users\Andres\Dropbox\UniBo\SequentialMultiprocessing\CM4\JLinkSettings.ini"", ...)  returns 0x00 (0002ms, 0586ms total)
T9AFC 000:903 JLINK_ExecCommand("Device = LPC4357", ...)Device "LPC4357_M4" selected (1024 KB flash, 40 KB RAM).  returns 0x00 (0010ms, 0596ms total)
T9AFC 000:913 JLINK_ExecCommand("DisableConnectionTimeout", ...)  returns 0x01 (0000ms, 0596ms total)
T9AFC 000:914 JLINK_GetHardwareVersion()  returns 0x13880 (0000ms, 0596ms total)
T9AFC 000:914 JLINK_GetDLLVersion()  returns 47805 (0000ms, 0596ms total)
T9AFC 000:931 JLINK_GetDLLVersion()  returns 47805 (0000ms, 0596ms total)
T9AFC 000:931 JLINK_GetCompileDateTime() (0001ms, 0597ms total)
T9AFC 000:936 JLINK_GetFirmwareString(...) (0000ms, 0597ms total)
T9AFC 000:940 JLINK_GetHardwareVersion()  returns 0x13880 (0000ms, 0597ms total)
T9AFC 000:958 JLINK_TIF_Select(JLINKARM_TIF_JTAG)  returns 0x00 (0000ms, 0597ms total)
T9AFC 000:958 JLINK_SetSpeed(2000) (0001ms, 0598ms total)
T9AFC 000:959 JLINK_GetIdData(...) >0x2F8 JTAG>TotalIRLen = 8, IRPrint = 0x0011 >0x30 JTAG> >0x210 JTAG> >0x70 JTAG> >0x40 JTAG> >0x40 JTAG> >0x40 JTAG> >0x50 JTAG> >0x80 JTAG> >0x40 JTAG> >0x30 JTAG> >0x40 JTAG> >0x40 JTAG> >0x30 JTAG> >0x40 JTAG> >0x50 JTAG>Found Cortex-M4 r0p1, Little endian. -- CPU_WriteMem(4 bytes @ 0xE0002000) -- CPU_ReadMem(4 bytes @ 0xE000EDF0) -- CPU_WriteMem(4 bytes @ 0xE000EDF0) -- CPU_ReadMem(4 bytes @ 0xE0002000)FPUnit: 6 code (BP) slots and 2 literal slots
 -- CPU_ReadMem(4 bytes @ 0xE000EDFC) -- CPU_WriteMem(4 bytes @ 0xE000EDFC) -- CPU_ReadMem(4 bytes @ 0xE0001000) -- CPU_WriteMem(4 bytes @ 0xE0001000) -- CPU_ReadMem(4 bytes @ 0xE00FF010)TPIU fitted.ETM fitted.ETB present. -- CPU_ReadMem(4 bytes @ 0xE00FF018) ScanLen=8 NumDevices=2 aId[0]=0x4BA00477 aIrRead[0]=0 aScanLen[0]=0 aScanRead[0]=0 (0060ms, 0658ms total)
T9AFC 001:019 JLINK_JTAG_GetDeviceID(DeviceIndex = 0)  returns 0x4BA00477 (0000ms, 0658ms total)
T9AFC 001:019 JLINK_JTAG_GetDeviceInfo(DeviceIndex = 0)  returns 0x00 (0000ms, 0658ms total)
T9AFC 001:019 JLINK_JTAG_GetDeviceID(DeviceIndex = 1)  returns 0xBA01477 (0000ms, 0658ms total)
T9AFC 001:019 JLINK_JTAG_GetDeviceInfo(DeviceIndex = 1)  returns 0x00 (0000ms, 0658ms total)
T9AFC 001:019 JLINK_GetDeviceFamily()  returns 14 (0000ms, 0658ms total)
T9AFC 001:023 JLINK_ReadMem (0xE00FFFF0, 0x0010 Bytes, ...) -- CPU is running -- CPU_ReadMem(16 bytes @ 0xE00FFFF0) -- Data:  0D 00 00 00 10 00 00 00 05 00 00 00 B1 00 00 00  returns 0x00 (0003ms, 0661ms total)
T9AFC 001:026 JLINK_ReadMem (0xE00FFFD0, 0x0020 Bytes, ...) -- CPU is running -- CPU_ReadMem(32 bytes @ 0xE00FFFD0) -- Data:  04 00 00 00 00 00 00 00 00 00 00 00 00 00 00 00 ...  returns 0x00 (0002ms, 0663ms total)
T9AFC 001:028 JLINK_ReadMem (0xE00FF000, 0x0018 Bytes, ...) -- CPU is running -- CPU_ReadMem(24 bytes @ 0xE00FF000) -- Data:  03 F0 F0 FF 03 20 F0 FF 03 30 F0 FF 03 10 F0 FF ...  returns 0x00 (0001ms, 0664ms total)
T9AFC 001:029 JLINK_ReadMemU32(0xE000ED00, 0x0001 Items, ...) -- CPU is running -- CPU_ReadMem(4 bytes @ 0xE000ED00) -- Data:  41 C2 0F 41  returns 0x01 (0001ms, 0665ms total)
T9AFC 001:030 JLINK_ReadMemU32(0xE000EF40, 0x0001 Items, ...) -- CPU is running -- CPU_ReadMem(4 bytes @ 0xE000EF40) -- Data:  21 00 11 10  returns 0x01 (0001ms, 0666ms total)
T9AFC 001:031 JLINK_ReadMemU32(0xE000EF44, 0x0001 Items, ...) -- CPU is running -- CPU_ReadMem(4 bytes @ 0xE000EF44) -- Data:  11 00 00 11  returns 0x01 (0001ms, 0667ms total)
T9AFC 001:032 JLINK_SetResetType(JLINKARM_RESET_TYPE_NO_RESET)  returns JLINKARM_RESET_TYPE_NORMAL (0001ms, 0668ms total)
T9AFC 001:033 JLINK_Reset() -- CPU_ReadMem(64 bytes @ 0x10000000) -- CPU_ReadMem(64 bytes @ 0x10080000) -- CPU_ReadMem(4096 bytes @ 0x10089000) -- CPU_WriteMem(4 bytes @ 0x40043100) -- CPU_WriteMem(4 bytes @ 0x4004312C) -- CPU_ReadMem(4 bytes @ 0xE000EDFC) -- CPU_ReadMem(4 bytes @ 0xE0001020) -- CPU_ReadMem(4 bytes @ 0xE0001024) -- CPU_ReadMem(4 bytes @ 0xE0001028) -- CPU_WriteMem(4 bytes @ 0xE0001020) -- CPU_WriteMem(4 bytes @ 0xE0001024) -- CPU_WriteMem(4 bytes @ 0xE0001028)
 -- CPU_ReadMem(8192 bytes @ 0x10400000) -- CPU_WriteMem(4 bytes @ 0xE0002000) -- CPU_ReadMem(4 bytes @ 0xE0002008) -- CPU_WriteMem(4 bytes @ 0xE0002008) -- CPU_WriteMem(4 bytes @ 0xE000ED0C) -- CPU_WriteMem(4 bytes @ 0xE0002008) -- CPU_WriteMem(4 bytes @ 0xE0001020) -- CPU_WriteMem(4 bytes @ 0xE0001024) -- CPU_WriteMem(4 bytes @ 0xE0001028) -- CPU_WriteMem(64 bytes @ 0x10000000) -- CPU_WriteMem(64 bytes @ 0x10080000) -- CPU_WriteMem(4096 bytes @ 0x10089000) -- CPU_ReadMem(4 bytes @ 0x00000000)
 -- CPU_WriteMem(4 bytes @ 0xE000EDF8) -- CPU_WriteMem(4 bytes @ 0xE000EDF4) -- CPU_ReadMem(4 bytes @ 0x00000004) -- CPU_WriteMem(4 bytes @ 0xE000EDF8) -- CPU_WriteMem(4 bytes @ 0xE000EDF4) -- CPU_WriteMem(4 bytes @ 0xE0002000) (0201ms, 0869ms total)
T9AFC 001:234 JLINK_Halt()  returns 0x00 (0001ms, 0870ms total)
T9AFC 001:235 JLINK_IsHalted()  returns TRUE (0000ms, 0870ms total)
T9AFC 001:235 JLINK_ReadMemU32(0xE000EDF0, 0x0001 Items, ...) -- CPU_ReadMem(4 bytes @ 0xE000EDF0) -- Data:  03 00 03 00  returns 0x01 (0001ms, 0871ms total)
T9AFC 001:236 JLINK_WriteU32(0xE000EDF0, 0xA05F0003) -- CPU_WriteMem(4 bytes @ 0xE000EDF0)  returns 0x00 (0001ms, 0872ms total)
T9AFC 001:237 JLINK_WriteU32(0xE000EDFC, 0x01000000) -- CPU_WriteMem(4 bytes @ 0xE000EDFC)  returns 0x00 (0001ms, 0873ms total)
T9AFC 001:257 JLINK_GetHWStatus(...)  returns 0x00 (0001ms, 0875ms total)
T9AFC 001:267 JLINK_GetNumBPUnits(Type = 0xFFFFFF00)  returns 0x06 (0000ms, 0875ms total)
T9AFC 001:268 JLINK_GetNumBPUnits(Type = 0xF0)  returns 0x2000 (0000ms, 0876ms total)
T9AFC 001:268 JLINK_GetNumWPUnits()  returns 0x04 (0000ms, 0876ms total)
T9AFC 001:277 JLINK_GetSpeed()  returns 0x7D0 (0000ms, 0876ms total)
T9AFC 001:285 JLINK_ReadMemU32(0xE000E004, 0x0001 Items, ...) -- CPU_ReadMem(4 bytes @ 0xE000E004) -- Data:  01 00 00 00  returns 0x01 (0008ms, 0884ms total)
T9AFC 001:293 JLINK_ReadMemU32(0xE000E004, 0x0001 Items, ...) -- CPU_ReadMem(4 bytes @ 0xE000E004) -- Data:  01 00 00 00  returns 0x01 (0002ms, 0886ms total)
T9AFC 001:295 JLINK_WriteMem(0xE0001000, 0x001C Bytes, ...) -- Data:  01 00 00 00 00 00 00 00 00 00 00 00 00 00 00 00 ... -- CPU_WriteMem(28 bytes @ 0xE0001000)  returns 0x1C (0001ms, 0887ms total)
T9AFC 001:296 JLINK_ReadMem (0xE0001000, 0x001C Bytes, ...) -- CPU_ReadMem(28 bytes @ 0xE0001000) -- Data:  01 00 00 40 00 00 00 00 00 00 00 00 00 00 00 00 ...  returns 0x00 (0002ms, 0889ms total)
T9AFC 001:298 JLINK_Halt()  returns 0x00 (0000ms, 0889ms total)
T9AFC 001:298 JLINK_IsHalted()  returns TRUE (0001ms, 0890ms total)
T9AFC 001:304 JLINK_WriteMem(0x10000000, 0x02B4 Bytes, ...) -- Data:  00 BE 0A E0 0D 78 2D 06 68 40 08 24 40 00 00 D3 ... -- CPU_WriteMem(692 bytes @ 0x10000000)  returns 0x2B4 (0005ms, 0894ms total)
T9AFC 001:309 JLINK_WriteReg(R0, 0x1A000000)  returns 0x00 (0001ms, 0895ms total)
T9AFC 001:310 JLINK_WriteReg(R1, 0x00B71B00)  returns 0x00 (0000ms, 0895ms total)
T9AFC 001:310 JLINK_WriteReg(R2, 0x00000001)  returns 0x00 (0000ms, 0895ms total)
T9AFC 001:310 JLINK_WriteReg(R3, 0x00000000)  returns 0x00 (0000ms, 0895ms total)
T9AFC 001:310 JLINK_WriteReg(R4, 0x00000000)  returns 0x00 (0000ms, 0895ms total)
T9AFC 001:310 JLINK_WriteReg(R5, 0x00000000)  returns 0x00 (0000ms, 0895ms total)
T9AFC 001:310 JLINK_WriteReg(R6, 0x00000000)  returns 0x00 (0000ms, 0895ms total)
T9AFC 001:310 JLINK_WriteReg(R7, 0x00000000)  returns 0x00 (0000ms, 0895ms total)
T9AFC 001:310 JLINK_WriteReg(R8, 0x00000000)  returns 0x00 (0001ms, 0896ms total)
T9AFC 001:311 JLINK_WriteReg(R9, 0x100002A4)  returns 0x00 (0000ms, 0896ms total)
T9AFC 001:311 JLINK_WriteReg(R10, 0x00000000)  returns 0x00 (0000ms, 0896ms total)
T9AFC 001:311 JLINK_WriteReg(R11, 0x00000000)  returns 0x00 (0000ms, 0896ms total)
T9AFC 001:311 JLINK_WriteReg(R12, 0x00000000)  returns 0x00 (0000ms, 0896ms total)
T9AFC 001:311 JLINK_WriteReg(R13 (SP), 0x10000800)  returns 0x00 (0000ms, 0896ms total)
T9AFC 001:311 JLINK_WriteReg(R14, 0x10000001)  returns 0x00 (0000ms, 0896ms total)
T9AFC 001:311 JLINK_WriteReg(R15 (PC), 0x10000046)  returns 0x00 (0000ms, 0896ms total)
T9AFC 001:311 JLINK_WriteReg(XPSR, 0x01000000)  returns 0x00 (0000ms, 0896ms total)
T9AFC 001:311 JLINK_WriteReg(MSP, 0x10000800)  returns 0x00 (0001ms, 0897ms total)
T9AFC 001:312 JLINK_WriteReg(PSP, 0x10000800)  returns 0x00 (0000ms, 0897ms total)
T9AFC 001:312 JLINK_WriteReg(CFBP, 0x00000000)  returns 0x00 (0000ms, 0897ms total)
T9AFC 001:312 JLINK_SetBPEx(Addr = 0x10000000, Type = 0xFFFFFFF2)  returns 0x00000001 (0000ms, 0897ms total)
T9AFC 001:312 JLINK_Go() -- CPU_WriteMem(4 bytes @ 0xE0002008) -- CPU_WriteMem(4 bytes @ 0xE000200C) -- CPU_WriteMem(4 bytes @ 0xE0002010) -- CPU_WriteMem(4 bytes @ 0xE0002014) -- CPU_WriteMem(4 bytes @ 0xE0002018) -- CPU_WriteMem(4 bytes @ 0xE000201C) (0009ms, 0906ms total)
T9AFC 001:321 JLINK_IsHalted()  returns TRUE (0005ms, 0911ms total)
T9AFC 001:326 JLINK_ReadReg(R15 (PC))  returns 0x10000000 (0000ms, 0906ms total)
T9AFC 001:327 JLINK_ClrBPEx(BPHandle = 0x00000001)  returns 0x00 (0000ms, 0907ms total)
T9AFC 001:327 JLINK_ReadReg(R0)  returns 0x00000000 (0000ms, 0907ms total)
T9AFC 001:327 JLINK_WriteReg(R0, 0x1A000000)  returns 0x00 (0001ms, 0908ms total)
T9AFC 001:328 JLINK_WriteReg(R1, 0x00002000)  returns 0x00 (0000ms, 0908ms total)
T9AFC 001:328 JLINK_WriteReg(R2, 0x000000FF)  returns 0x00 (0000ms, 0908ms total)
T9AFC 001:328 JLINK_WriteReg(R3, 0x00000000)  returns 0x00 (0000ms, 0908ms total)
T9AFC 001:328 JLINK_WriteReg(R4, 0x00000000)  returns 0x00 (0000ms, 0908ms total)
T9AFC 001:328 JLINK_WriteReg(R5, 0x00000000)  returns 0x00 (0000ms, 0908ms total)
T9AFC 001:328 JLINK_WriteReg(R6, 0x00000000)  returns 0x00 (0000ms, 0908ms total)
T9AFC 001:328 JLINK_WriteReg(R7, 0x00000000)  returns 0x00 (0000ms, 0908ms total)
T9AFC 001:328 JLINK_WriteReg(R8, 0x00000000)  returns 0x00 (0000ms, 0908ms total)
T9AFC 001:329 JLINK_WriteReg(R9, 0x100002A4)  returns 0x00 (0000ms, 0909ms total)
T9AFC 001:329 JLINK_WriteReg(R10, 0x00000000)  returns 0x00 (0000ms, 0909ms total)
T9AFC 001:329 JLINK_WriteReg(R11, 0x00000000)  returns 0x00 (0000ms, 0909ms total)
T9AFC 001:329 JLINK_WriteReg(R12, 0x00000000)  returns 0x00 (0000ms, 0909ms total)
T9AFC 001:329 JLINK_WriteReg(R13 (SP), 0x10000800)  returns 0x00 (0000ms, 0909ms total)
T9AFC 001:329 JLINK_WriteReg(R14, 0x10000001)  returns 0x00 (0000ms, 0909ms total)
T9AFC 001:329 JLINK_WriteReg(R15 (PC), 0x10000020)  returns 0x00 (0000ms, 0909ms total)
T9AFC 001:329 JLINK_WriteReg(XPSR, 0x01000000)  returns 0x00 (0001ms, 0910ms total)
T9AFC 001:330 JLINK_WriteReg(MSP, 0x10000800)  returns 0x00 (0000ms, 0910ms total)
T9AFC 001:330 JLINK_WriteReg(PSP, 0x10000800)  returns 0x00 (0000ms, 0910ms total)
T9AFC 001:330 JLINK_WriteReg(CFBP, 0x00000000)  returns 0x00 (0000ms, 0910ms total)
T9AFC 001:330 JLINK_SetBPEx(Addr = 0x10000000, Type = 0xFFFFFFF2)  returns 0x00000002 (0000ms, 0910ms total)
T9AFC 001:330 JLINK_Go() (0003ms, 0913ms total)
T9AFC 001:333 JLINK_IsHalted()  returns TRUE (0005ms, 0918ms total)
T9AFC 001:338 JLINK_ReadReg(R15 (PC))  returns 0x10000000 (0000ms, 0913ms total)
T9AFC 001:338 JLINK_ClrBPEx(BPHandle = 0x00000002)  returns 0x00 (0000ms, 0913ms total)
T9AFC 001:338 JLINK_ReadReg(R0)  returns 0x00000001 (0000ms, 0913ms total)
T9AFC 001:338 JLINK_WriteReg(R0, 0x1A000000)  returns 0x00 (0000ms, 0913ms total)
T9AFC 001:338 JLINK_WriteReg(R1, 0x00002000)  returns 0x00 (0001ms, 0914ms total)
T9AFC 001:339 JLINK_WriteReg(R2, 0x000000FF)  returns 0x00 (0000ms, 0914ms total)
T9AFC 001:339 JLINK_WriteReg(R3, 0x00000000)  returns 0x00 (0000ms, 0914ms total)
T9AFC 001:339 JLINK_WriteReg(R4, 0x00000000)  returns 0x00 (0000ms, 0914ms total)
T9AFC 001:339 JLINK_WriteReg(R5, 0x00000000)  returns 0x00 (0000ms, 0914ms total)
T9AFC 001:339 JLINK_WriteReg(R6, 0x00000000)  returns 0x00 (0000ms, 0914ms total)
T9AFC 001:339 JLINK_WriteReg(R7, 0x00000000)  returns 0x00 (0000ms, 0914ms total)
T9AFC 001:339 JLINK_WriteReg(R8, 0x00000000)  returns 0x00 (0000ms, 0914ms total)
T9AFC 001:339 JLINK_WriteReg(R9, 0x100002A4)  returns 0x00 (0000ms, 0914ms total)
T9AFC 001:339 JLINK_WriteReg(R10, 0x00000000)  returns 0x00 (0001ms, 0915ms total)
T9AFC 001:340 JLINK_WriteReg(R11, 0x00000000)  returns 0x00 (0000ms, 0915ms total)
T9AFC 001:340 JLINK_WriteReg(R12, 0x00000000)  returns 0x00 (0000ms, 0915ms total)
T9AFC 001:340 JLINK_WriteReg(R13 (SP), 0x10000800)  returns 0x00 (0000ms, 0915ms total)
T9AFC 001:340 JLINK_WriteReg(R14, 0x10000001)  returns 0x00 (0000ms, 0915ms total)
T9AFC 001:340 JLINK_WriteReg(R15 (PC), 0x100000E8)  returns 0x00 (0000ms, 0915ms total)
T9AFC 001:340 JLINK_WriteReg(XPSR, 0x01000000)  returns 0x00 (0000ms, 0915ms total)
T9AFC 001:340 JLINK_WriteReg(MSP, 0x10000800)  returns 0x00 (0000ms, 0915ms total)
T9AFC 001:340 JLINK_WriteReg(PSP, 0x10000800)  returns 0x00 (0000ms, 0915ms total)
T9AFC 001:340 JLINK_WriteReg(CFBP, 0x00000000)  returns 0x00 (0001ms, 0916ms total)
T9AFC 001:341 JLINK_SetBPEx(Addr = 0x10000000, Type = 0xFFFFFFF2)  returns 0x00000003 (0000ms, 0916ms total)
T9AFC 001:341 JLINK_Go() (0002ms, 0918ms total)
T9AFC 001:343 JLINK_IsHalted()  returns FALSE (0001ms, 0919ms total)
T9AFC 001:486 JLINK_IsHalted()  returns TRUE (0006ms, 0924ms total)
T9AFC 001:492 JLINK_ReadReg(R15 (PC))  returns 0x10000000 (0000ms, 0918ms total)
T9AFC 001:492 JLINK_ClrBPEx(BPHandle = 0x00000003)  returns 0x00 (0000ms, 0918ms total)
T9AFC 001:492 JLINK_ReadReg(R0)  returns 0x00000000 (0000ms, 0918ms total)
T9AFC 001:497 JLINK_WriteReg(R0, 0x1A002000)  returns 0x00 (0000ms, 0918ms total)
T9AFC 001:497 JLINK_WriteReg(R1, 0x00002000)  returns 0x00 (0000ms, 0918ms total)
T9AFC 001:497 JLINK_WriteReg(R2, 0x000000FF)  returns 0x00 (0000ms, 0918ms total)
T9AFC 001:497 JLINK_WriteReg(R3, 0x00000000)  returns 0x00 (0000ms, 0918ms total)
T9AFC 001:497 JLINK_WriteReg(R4, 0x00000000)  returns 0x00 (0000ms, 0918ms total)
T9AFC 001:497 JLINK_WriteReg(R5, 0x00000000)  returns 0x00 (0001ms, 0919ms total)
T9AFC 001:498 JLINK_WriteReg(R6, 0x00000000)  returns 0x00 (0000ms, 0919ms total)
T9AFC 001:498 JLINK_WriteReg(R7, 0x00000000)  returns 0x00 (0000ms, 0919ms total)
T9AFC 001:498 JLINK_WriteReg(R8, 0x00000000)  returns 0x00 (0000ms, 0919ms total)
T9AFC 001:498 JLINK_WriteReg(R9, 0x100002A4)  returns 0x00 (0000ms, 0919ms total)
T9AFC 001:498 JLINK_WriteReg(R10, 0x00000000)  returns 0x00 (0000ms, 0919ms total)
T9AFC 001:498 JLINK_WriteReg(R11, 0x00000000)  returns 0x00 (0000ms, 0919ms total)
T9AFC 001:498 JLINK_WriteReg(R12, 0x00000000)  returns 0x00 (0001ms, 0920ms total)
T9AFC 001:499 JLINK_WriteReg(R13 (SP), 0x10000800)  returns 0x00 (0000ms, 0920ms total)
T9AFC 001:499 JLINK_WriteReg(R14, 0x10000001)  returns 0x00 (0000ms, 0920ms total)
T9AFC 001:499 JLINK_WriteReg(R15 (PC), 0x10000020)  returns 0x00 (0000ms, 0920ms total)
T9AFC 001:499 JLINK_WriteReg(XPSR, 0x01000000)  returns 0x00 (0000ms, 0920ms total)
T9AFC 001:499 JLINK_WriteReg(MSP, 0x10000800)  returns 0x00 (0000ms, 0920ms total)
T9AFC 001:499 JLINK_WriteReg(PSP, 0x10000800)  returns 0x00 (0000ms, 0920ms total)
T9AFC 001:499 JLINK_WriteReg(CFBP, 0x00000000)  returns 0x00 (0000ms, 0920ms total)
T9AFC 001:499 JLINK_SetBPEx(Addr = 0x10000000, Type = 0xFFFFFFF2)  returns 0x00000004 (0001ms, 0921ms total)
T9AFC 001:500 JLINK_Go() (0002ms, 0923ms total)
T9AFC 001:502 JLINK_IsHalted()  returns TRUE (0005ms, 0928ms total)
T9AFC 001:507 JLINK_ReadReg(R15 (PC))  returns 0x10000000 (0000ms, 0923ms total)
T9AFC 001:507 JLINK_ClrBPEx(BPHandle = 0x00000004)  returns 0x00 (0000ms, 0923ms total)
T9AFC 001:507 JLINK_ReadReg(R0)  returns 0x00000001 (0001ms, 0924ms total)
T9AFC 001:508 JLINK_WriteReg(R0, 0x1A002000)  returns 0x00 (0000ms, 0924ms total)
T9AFC 001:508 JLINK_WriteReg(R1, 0x00002000)  returns 0x00 (0000ms, 0924ms total)
T9AFC 001:508 JLINK_WriteReg(R2, 0x000000FF)  returns 0x00 (0000ms, 0924ms total)
T9AFC 001:508 JLINK_WriteReg(R3, 0x00000000)  returns 0x00 (0000ms, 0924ms total)
T9AFC 001:508 JLINK_WriteReg(R4, 0x00000000)  returns 0x00 (0000ms, 0924ms total)
T9AFC 001:508 JLINK_WriteReg(R5, 0x00000000)  returns 0x00 (0000ms, 0924ms total)
T9AFC 001:508 JLINK_WriteReg(R6, 0x00000000)  returns 0x00 (0000ms, 0924ms total)
T9AFC 001:509 JLINK_WriteReg(R7, 0x00000000)  returns 0x00 (0000ms, 0925ms total)
T9AFC 001:509 JLINK_WriteReg(R8, 0x00000000)  returns 0x00 (0000ms, 0925ms total)
T9AFC 001:509 JLINK_WriteReg(R9, 0x100002A4)  returns 0x00 (0000ms, 0925ms total)
T9AFC 001:509 JLINK_WriteReg(R10, 0x00000000)  returns 0x00 (0000ms, 0925ms total)
T9AFC 001:509 JLINK_WriteReg(R11, 0x00000000)  returns 0x00 (0000ms, 0925ms total)
T9AFC 001:509 JLINK_WriteReg(R12, 0x00000000)  returns 0x00 (0000ms, 0925ms total)
T9AFC 001:509 JLINK_WriteReg(R13 (SP), 0x10000800)  returns 0x00 (0000ms, 0925ms total)
T9AFC 001:509 JLINK_WriteReg(R14, 0x10000001)  returns 0x00 (0000ms, 0925ms total)
T9AFC 001:509 JLINK_WriteReg(R15 (PC), 0x100000E8)  returns 0x00 (0001ms, 0926ms total)
T9AFC 001:510 JLINK_WriteReg(XPSR, 0x01000000)  returns 0x00 (0000ms, 0926ms total)
T9AFC 001:510 JLINK_WriteReg(MSP, 0x10000800)  returns 0x00 (0000ms, 0926ms total)
T9AFC 001:510 JLINK_WriteReg(PSP, 0x10000800)  returns 0x00 (0000ms, 0926ms total)
T9AFC 001:510 JLINK_WriteReg(CFBP, 0x00000000)  returns 0x00 (0000ms, 0926ms total)
T9AFC 001:510 JLINK_SetBPEx(Addr = 0x10000000, Type = 0xFFFFFFF2)  returns 0x00000005 (0000ms, 0926ms total)
T9AFC 001:510 JLINK_Go() (0002ms, 0928ms total)
T9AFC 001:512 JLINK_IsHalted()  returns FALSE (0005ms, 0933ms total)
T9AFC 001:541 JLINK_IsHalted()  returns FALSE (0001ms, 0929ms total)
T9AFC 001:543 JLINK_IsHalted()  returns FALSE (0001ms, 0929ms total)
T9AFC 001:545 JLINK_IsHalted()  returns FALSE (0001ms, 0929ms total)
T9AFC 001:552 JLINK_IsHalted()  returns FALSE (0000ms, 0928ms total)
T9AFC 001:553 JLINK_IsHalted()  returns FALSE (0000ms, 0928ms total)
T9AFC 001:554 JLINK_IsHalted()  returns FALSE (0000ms, 0928ms total)
T9AFC 001:555 JLINK_IsHalted()  returns FALSE (0000ms, 0928ms total)
T9AFC 001:566 JLINK_IsHalted()  returns FALSE (0002ms, 0930ms total)
T9AFC 001:569 JLINK_IsHalted()  returns FALSE (0001ms, 0929ms total)
T9AFC 001:571 JLINK_IsHalted()  returns FALSE (0001ms, 0929ms total)
T9AFC 001:573 JLINK_IsHalted()  returns FALSE (0002ms, 0930ms total)
T9AFC 001:577 JLINK_IsHalted()  returns FALSE (0001ms, 0929ms total)
T9AFC 001:579 JLINK_IsHalted()  returns FALSE (0001ms, 0929ms total)
T9AFC 001:585 JLINK_IsHalted()  returns FALSE (0002ms, 0930ms total)
T9AFC 001:588 JLINK_IsHalted()  returns FALSE (0001ms, 0929ms total)
T9AFC 001:590 JLINK_IsHalted()  returns FALSE (0003ms, 0931ms total)
T9AFC 001:594 JLINK_IsHalted()  returns FALSE (0001ms, 0929ms total)
T9AFC 001:604 JLINK_IsHalted()  returns FALSE (0001ms, 0929ms total)
T9AFC 001:609 JLINK_IsHalted()  returns FALSE (0001ms, 0929ms total)
T9AFC 001:618 JLINK_IsHalted()  returns TRUE (0005ms, 0933ms total)
T9AFC 001:623 JLINK_ReadReg(R15 (PC))  returns 0x10000000 (0000ms, 0928ms total)
T9AFC 001:623 JLINK_ClrBPEx(BPHandle = 0x00000005)  returns 0x00 (0000ms, 0928ms total)
T9AFC 001:623 JLINK_ReadReg(R0)  returns 0x00000000 (0000ms, 0928ms total)
T9AFC 001:625 JLINK_WriteReg(R0, 0x1A004000)  returns 0x00 (0000ms, 0928ms total)
T9AFC 001:625 JLINK_WriteReg(R1, 0x00002000)  returns 0x00 (0000ms, 0928ms total)
T9AFC 001:625 JLINK_WriteReg(R2, 0x000000FF)  returns 0x00 (0000ms, 0928ms total)
T9AFC 001:625 JLINK_WriteReg(R3, 0x00000000)  returns 0x00 (0001ms, 0929ms total)
T9AFC 001:626 JLINK_WriteReg(R4, 0x00000000)  returns 0x00 (0000ms, 0929ms total)
T9AFC 001:626 JLINK_WriteReg(R5, 0x00000000)  returns 0x00 (0000ms, 0929ms total)
T9AFC 001:626 JLINK_WriteReg(R6, 0x00000000)  returns 0x00 (0000ms, 0929ms total)
T9AFC 001:626 JLINK_WriteReg(R7, 0x00000000)  returns 0x00 (0000ms, 0929ms total)
T9AFC 001:626 JLINK_WriteReg(R8, 0x00000000)  returns 0x00 (0000ms, 0929ms total)
T9AFC 001:627 JLINK_WriteReg(R9, 0x100002A4)  returns 0x00 (0000ms, 0930ms total)
T9AFC 001:627 JLINK_WriteReg(R10, 0x00000000)  returns 0x00 (0000ms, 0930ms total)
T9AFC 001:627 JLINK_WriteReg(R11, 0x00000000)  returns 0x00 (0000ms, 0930ms total)
T9AFC 001:627 JLINK_WriteReg(R12, 0x00000000)  returns 0x00 (0000ms, 0930ms total)
T9AFC 001:627 JLINK_WriteReg(R13 (SP), 0x10000800)  returns 0x00 (0000ms, 0930ms total)
T9AFC 001:627 JLINK_WriteReg(R14, 0x10000001)  returns 0x00 (0000ms, 0930ms total)
T9AFC 001:627 JLINK_WriteReg(R15 (PC), 0x10000020)  returns 0x00 (0001ms, 0931ms total)
T9AFC 001:628 JLINK_WriteReg(XPSR, 0x01000000)  returns 0x00 (0000ms, 0931ms total)
T9AFC 001:628 JLINK_WriteReg(MSP, 0x10000800)  returns 0x00 (0000ms, 0931ms total)
T9AFC 001:628 JLINK_WriteReg(PSP, 0x10000800)  returns 0x00 (0000ms, 0931ms total)
T9AFC 001:628 JLINK_WriteReg(CFBP, 0x00000000)  returns 0x00 (0000ms, 0931ms total)
T9AFC 001:628 JLINK_SetBPEx(Addr = 0x10000000, Type = 0xFFFFFFF2)  returns 0x00000006 (0000ms, 0931ms total)
T9AFC 001:628 JLINK_Go() (0003ms, 0934ms total)
T9AFC 001:631 JLINK_IsHalted()  returns TRUE (0005ms, 0939ms total)
T9AFC 001:636 JLINK_ReadReg(R15 (PC))  returns 0x10000000 (0000ms, 0934ms total)
T9AFC 001:636 JLINK_ClrBPEx(BPHandle = 0x00000006)  returns 0x00 (0000ms, 0934ms total)
T9AFC 001:636 JLINK_ReadReg(R0)  returns 0x00000001 (0001ms, 0935ms total)
T9AFC 001:637 JLINK_WriteReg(R0, 0x1A004000)  returns 0x00 (0000ms, 0935ms total)
T9AFC 001:637 JLINK_WriteReg(R1, 0x00002000)  returns 0x00 (0000ms, 0935ms total)
T9AFC 001:637 JLINK_WriteReg(R2, 0x000000FF)  returns 0x00 (0000ms, 0935ms total)
T9AFC 001:637 JLINK_WriteReg(R3, 0x00000000)  returns 0x00 (0000ms, 0935ms total)
T9AFC 001:637 JLINK_WriteReg(R4, 0x00000000)  returns 0x00 (0001ms, 0936ms total)
T9AFC 001:638 JLINK_WriteReg(R5, 0x00000000)  returns 0x00 (0000ms, 0936ms total)
T9AFC 001:638 JLINK_WriteReg(R6, 0x00000000)  returns 0x00 (0000ms, 0936ms total)
T9AFC 001:638 JLINK_WriteReg(R7, 0x00000000)  returns 0x00 (0000ms, 0936ms total)
T9AFC 001:638 JLINK_WriteReg(R8, 0x00000000)  returns 0x00 (0000ms, 0936ms total)
T9AFC 001:638 JLINK_WriteReg(R9, 0x100002A4)  returns 0x00 (0000ms, 0936ms total)
T9AFC 001:638 JLINK_WriteReg(R10, 0x00000000)  returns 0x00 (0000ms, 0936ms total)
T9AFC 001:639 JLINK_WriteReg(R11, 0x00000000)  returns 0x00 (0000ms, 0937ms total)
T9AFC 001:639 JLINK_WriteReg(R12, 0x00000000)  returns 0x00 (0000ms, 0937ms total)
T9AFC 001:639 JLINK_WriteReg(R13 (SP), 0x10000800)  returns 0x00 (0000ms, 0937ms total)
T9AFC 001:639 JLINK_WriteReg(R14, 0x10000001)  returns 0x00 (0000ms, 0937ms total)
T9AFC 001:639 JLINK_WriteReg(R15 (PC), 0x100000E8)  returns 0x00 (0000ms, 0937ms total)
T9AFC 001:639 JLINK_WriteReg(XPSR, 0x01000000)  returns 0x00 (0000ms, 0937ms total)
T9AFC 001:639 JLINK_WriteReg(MSP, 0x10000800)  returns 0x00 (0001ms, 0938ms total)
T9AFC 001:640 JLINK_WriteReg(PSP, 0x10000800)  returns 0x00 (0000ms, 0938ms total)
T9AFC 001:640 JLINK_WriteReg(CFBP, 0x00000000)  returns 0x00 (0000ms, 0938ms total)
T9AFC 001:640 JLINK_SetBPEx(Addr = 0x10000000, Type = 0xFFFFFFF2)  returns 0x00000007 (0000ms, 0938ms total)
T9AFC 001:640 JLINK_Go() (0002ms, 0940ms total)
T9AFC 001:643 JLINK_IsHalted()  returns FALSE (0001ms, 0942ms total)
T9AFC 001:650 JLINK_IsHalted()  returns FALSE (0001ms, 0942ms total)
T9AFC 001:653 JLINK_IsHalted()  returns FALSE (0001ms, 0942ms total)
T9AFC 001:662 JLINK_IsHalted()  returns FALSE (0001ms, 0942ms total)
T9AFC 001:664 JLINK_IsHalted()  returns FALSE (0001ms, 0942ms total)
T9AFC 001:666 JLINK_IsHalted()  returns FALSE (0001ms, 0942ms total)
T9AFC 001:668 JLINK_IsHalted()  returns FALSE (0001ms, 0942ms total)
T9AFC 001:676 JLINK_IsHalted()  returns FALSE (0000ms, 0941ms total)
T9AFC 001:677 JLINK_IsHalted()  returns FALSE (0000ms, 0941ms total)
T9AFC 001:678 JLINK_IsHalted()  returns FALSE (0000ms, 0941ms total)
T9AFC 001:679 JLINK_IsHalted()  returns FALSE (0000ms, 0941ms total)
T9AFC 001:680 JLINK_IsHalted()  returns FALSE (0000ms, 0941ms total)
T9AFC 001:681 JLINK_IsHalted()  returns FALSE (0000ms, 0941ms total)
T9AFC 001:682 JLINK_IsHalted()  returns FALSE (0000ms, 0941ms total)
T9AFC 001:684 JLINK_IsHalted()  returns FALSE (0001ms, 0942ms total)
T9AFC 001:689 JLINK_IsHalted()  returns FALSE (0003ms, 0944ms total)
T9AFC 001:694 JLINK_IsHalted()  returns FALSE (0002ms, 0943ms total)
T9AFC 001:697 JLINK_IsHalted()  returns FALSE (0001ms, 0942ms total)
T9AFC 001:699 JLINK_IsHalted()  returns FALSE (0001ms, 0942ms total)
T9AFC 001:717 JLINK_IsHalted()  returns FALSE (0001ms, 0942ms total)
T9AFC 001:719 JLINK_IsHalted()  returns FALSE (0001ms, 0942ms total)
T9AFC 001:721 JLINK_IsHalted()  returns FALSE (0001ms, 0942ms total)
T9AFC 001:723 JLINK_IsHalted()  returns FALSE (0001ms, 0942ms total)
T9AFC 001:728 JLINK_IsHalted()  returns FALSE (0001ms, 0942ms total)
T9AFC 001:730 JLINK_IsHalted()  returns FALSE (0001ms, 0942ms total)
T9AFC 001:739 JLINK_IsHalted()  returns FALSE (0001ms, 0942ms total)
T9AFC 001:741 JLINK_IsHalted()  returns FALSE (0001ms, 0942ms total)
T9AFC 001:743 JLINK_IsHalted()  returns TRUE (0005ms, 0946ms total)
T9AFC 001:748 JLINK_ReadReg(R15 (PC))  returns 0x10000000 (0000ms, 0941ms total)
T9AFC 001:748 JLINK_ClrBPEx(BPHandle = 0x00000007)  returns 0x00 (0000ms, 0941ms total)
T9AFC 001:748 JLINK_ReadReg(R0)  returns 0x00000000 (0000ms, 0941ms total)
T9AFC 001:750 JLINK_WriteReg(R0, 0x1A006000)  returns 0x00 (0000ms, 0941ms total)
T9AFC 001:750 JLINK_WriteReg(R1, 0x00002000)  returns 0x00 (0000ms, 0941ms total)
T9AFC 001:750 JLINK_WriteReg(R2, 0x000000FF)  returns 0x00 (0000ms, 0941ms total)
T9AFC 001:750 JLINK_WriteReg(R3, 0x00000000)  returns 0x00 (0000ms, 0941ms total)
T9AFC 001:750 JLINK_WriteReg(R4, 0x00000000)  returns 0x00 (0001ms, 0942ms total)
T9AFC 001:751 JLINK_WriteReg(R5, 0x00000000)  returns 0x00 (0000ms, 0942ms total)
T9AFC 001:751 JLINK_WriteReg(R6, 0x00000000)  returns 0x00 (0000ms, 0942ms total)
T9AFC 001:751 JLINK_WriteReg(R7, 0x00000000)  returns 0x00 (0000ms, 0942ms total)
T9AFC 001:751 JLINK_WriteReg(R8, 0x00000000)  returns 0x00 (0000ms, 0942ms total)
T9AFC 001:751 JLINK_WriteReg(R9, 0x100002A4)  returns 0x00 (0000ms, 0942ms total)
T9AFC 001:751 JLINK_WriteReg(R10, 0x00000000)  returns 0x00 (0000ms, 0942ms total)
T9AFC 001:752 JLINK_WriteReg(R11, 0x00000000)  returns 0x00 (0000ms, 0943ms total)
T9AFC 001:752 JLINK_WriteReg(R12, 0x00000000)  returns 0x00 (0000ms, 0943ms total)
T9AFC 001:752 JLINK_WriteReg(R13 (SP), 0x10000800)  returns 0x00 (0000ms, 0943ms total)
T9AFC 001:752 JLINK_WriteReg(R14, 0x10000001)  returns 0x00 (0000ms, 0943ms total)
T9AFC 001:752 JLINK_WriteReg(R15 (PC), 0x10000020)  returns 0x00 (0000ms, 0943ms total)
T9AFC 001:752 JLINK_WriteReg(XPSR, 0x01000000)  returns 0x00 (0000ms, 0943ms total)
T9AFC 001:753 JLINK_WriteReg(MSP, 0x10000800)  returns 0x00 (0000ms, 0943ms total)
T9AFC 001:753 JLINK_WriteReg(PSP, 0x10000800)  returns 0x00 (0000ms, 0943ms total)
T9AFC 001:753 JLINK_WriteReg(CFBP, 0x00000000)  returns 0x00 (0000ms, 0943ms total)
T9AFC 001:753 JLINK_SetBPEx(Addr = 0x10000000, Type = 0xFFFFFFF2)  returns 0x00000008 (0000ms, 0943ms total)
T9AFC 001:753 JLINK_Go() (0003ms, 0946ms total)
T9AFC 001:756 JLINK_IsHalted()  returns TRUE (0005ms, 0951ms total)
T9AFC 001:761 JLINK_ReadReg(R15 (PC))  returns 0x10000000 (0000ms, 0946ms total)
T9AFC 001:761 JLINK_ClrBPEx(BPHandle = 0x00000008)  returns 0x00 (0001ms, 0947ms total)
T9AFC 001:762 JLINK_ReadReg(R0)  returns 0x00000001 (0000ms, 0947ms total)
T9AFC 001:762 JLINK_WriteReg(R0, 0x1A006000)  returns 0x00 (0000ms, 0947ms total)
T9AFC 001:762 JLINK_WriteReg(R1, 0x00002000)  returns 0x00 (0000ms, 0947ms total)
T9AFC 001:762 JLINK_WriteReg(R2, 0x000000FF)  returns 0x00 (0000ms, 0947ms total)
T9AFC 001:762 JLINK_WriteReg(R3, 0x00000000)  returns 0x00 (0000ms, 0947ms total)
T9AFC 001:762 JLINK_WriteReg(R4, 0x00000000)  returns 0x00 (0000ms, 0947ms total)
T9AFC 001:762 JLINK_WriteReg(R5, 0x00000000)  returns 0x00 (0001ms, 0948ms total)
T9AFC 001:763 JLINK_WriteReg(R6, 0x00000000)  returns 0x00 (0000ms, 0948ms total)
T9AFC 001:763 JLINK_WriteReg(R7, 0x00000000)  returns 0x00 (0000ms, 0948ms total)
T9AFC 001:763 JLINK_WriteReg(R8, 0x00000000)  returns 0x00 (0000ms, 0948ms total)
T9AFC 001:763 JLINK_WriteReg(R9, 0x100002A4)  returns 0x00 (0000ms, 0948ms total)
T9AFC 001:763 JLINK_WriteReg(R10, 0x00000000)  returns 0x00 (0000ms, 0948ms total)
T9AFC 001:763 JLINK_WriteReg(R11, 0x00000000)  returns 0x00 (0001ms, 0949ms total)
T9AFC 001:764 JLINK_WriteReg(R12, 0x00000000)  returns 0x00 (0000ms, 0949ms total)
T9AFC 001:764 JLINK_WriteReg(R13 (SP), 0x10000800)  returns 0x00 (0000ms, 0949ms total)
T9AFC 001:764 JLINK_WriteReg(R14, 0x10000001)  returns 0x00 (0000ms, 0949ms total)
T9AFC 001:764 JLINK_WriteReg(R15 (PC), 0x100000E8)  returns 0x00 (0000ms, 0949ms total)
T9AFC 001:764 JLINK_WriteReg(XPSR, 0x01000000)  returns 0x00 (0001ms, 0950ms total)
T9AFC 001:765 JLINK_WriteReg(MSP, 0x10000800)  returns 0x00 (0000ms, 0950ms total)
T9AFC 001:765 JLINK_WriteReg(PSP, 0x10000800)  returns 0x00 (0000ms, 0950ms total)
T9AFC 001:765 JLINK_WriteReg(CFBP, 0x00000000)  returns 0x00 (0000ms, 0950ms total)
T9AFC 001:765 JLINK_SetBPEx(Addr = 0x10000000, Type = 0xFFFFFFF2)  returns 0x00000009 (0000ms, 0950ms total)
T9AFC 001:765 JLINK_Go() (0004ms, 0954ms total)
T9AFC 001:769 JLINK_IsHalted()  returns FALSE (0001ms, 0955ms total)
T9AFC 001:778 JLINK_IsHalted()  returns FALSE (0001ms, 0955ms total)
T9AFC 001:780 JLINK_IsHalted()  returns FALSE (0001ms, 0955ms total)
T9AFC 001:782 JLINK_IsHalted()  returns FALSE (0001ms, 0955ms total)
T9AFC 001:790 JLINK_IsHalted()  returns FALSE (0001ms, 0955ms total)
T9AFC 001:792 JLINK_IsHalted()  returns FALSE (0001ms, 0955ms total)
T9AFC 001:794 JLINK_IsHalted()  returns FALSE (0001ms, 0955ms total)
T9AFC 001:796 JLINK_IsHalted()  returns FALSE (0001ms, 0955ms total)
T9AFC 001:798 JLINK_IsHalted()  returns FALSE (0001ms, 0955ms total)
T9AFC 001:800 JLINK_IsHalted()  returns FALSE (0001ms, 0955ms total)
T9AFC 001:802 JLINK_IsHalted()  returns FALSE (0001ms, 0955ms total)
T9AFC 001:804 JLINK_IsHalted()  returns FALSE (0001ms, 0955ms total)
T9AFC 001:806 JLINK_IsHalted()  returns FALSE (0001ms, 0955ms total)
T9AFC 001:808 JLINK_IsHalted()  returns FALSE (0001ms, 0955ms total)
T9AFC 001:810 JLINK_IsHalted()  returns FALSE (0001ms, 0955ms total)
T9AFC 001:818 JLINK_IsHalted()  returns FALSE (0001ms, 0955ms total)
T9AFC 001:821 JLINK_IsHalted()  returns FALSE (0002ms, 0956ms total)
T9AFC 001:824 JLINK_IsHalted()  returns FALSE (0002ms, 0956ms total)
T9AFC 001:827 JLINK_IsHalted()  returns FALSE (0001ms, 0955ms total)
T9AFC 001:829 JLINK_IsHalted()  returns FALSE (0001ms, 0955ms total)
T9AFC 001:831 JLINK_IsHalted()  returns FALSE (0001ms, 0955ms total)
T9AFC 001:833 JLINK_IsHalted()  returns FALSE (0001ms, 0955ms total)
T9AFC 001:835 JLINK_IsHalted()  returns FALSE (0001ms, 0955ms total)
T9AFC 001:838 JLINK_IsHalted()  returns FALSE (0001ms, 0955ms total)
T9AFC 001:840 JLINK_IsHalted()  returns FALSE (0000ms, 0954ms total)
T9AFC 001:841 JLINK_IsHalted()  returns FALSE (0000ms, 0954ms total)
T9AFC 001:843 JLINK_IsHalted()  returns FALSE (0001ms, 0955ms total)
T9AFC 001:849 JLINK_IsHalted()  returns FALSE (0000ms, 0954ms total)
T9AFC 001:850 JLINK_IsHalted()  returns FALSE (0000ms, 0954ms total)
T9AFC 001:851 JLINK_IsHalted()  returns FALSE (0000ms, 0954ms total)
T9AFC 001:852 JLINK_IsHalted()  returns FALSE (0000ms, 0954ms total)
T9AFC 001:853 JLINK_IsHalted()  returns FALSE (0000ms, 0954ms total)
T9AFC 001:854 JLINK_IsHalted()  returns FALSE (0000ms, 0954ms total)
T9AFC 001:855 JLINK_IsHalted()  returns FALSE (0000ms, 0954ms total)
T9AFC 001:856 JLINK_IsHalted()  returns FALSE (0000ms, 0954ms total)
T9AFC 001:857 JLINK_IsHalted()  returns FALSE (0000ms, 0954ms total)
T9AFC 001:858 JLINK_IsHalted()  returns FALSE (0000ms, 0954ms total)
T9AFC 001:859 JLINK_IsHalted()  returns FALSE (0000ms, 0954ms total)
T9AFC 001:860 JLINK_IsHalted()  returns FALSE (0000ms, 0954ms total)
T9AFC 001:861 JLINK_IsHalted()  returns FALSE (0000ms, 0954ms total)
T9AFC 001:862 JLINK_IsHalted()  returns FALSE (0000ms, 0954ms total)
T9AFC 001:863 JLINK_IsHalted()  returns FALSE (0000ms, 0954ms total)
T9AFC 001:864 JLINK_IsHalted()  returns FALSE (0000ms, 0954ms total)
T9AFC 001:865 JLINK_IsHalted()  returns FALSE (0000ms, 0954ms total)
T9AFC 001:866 JLINK_IsHalted()  returns FALSE (0000ms, 0954ms total)
T9AFC 001:867 JLINK_IsHalted()  returns FALSE (0001ms, 0955ms total)
T9AFC 001:869 JLINK_IsHalted()  returns TRUE (0004ms, 0958ms total)
T9AFC 001:873 JLINK_ReadReg(R15 (PC))  returns 0x10000000 (0000ms, 0954ms total)
T9AFC 001:873 JLINK_ClrBPEx(BPHandle = 0x00000009)  returns 0x00 (0000ms, 0954ms total)
T9AFC 001:873 JLINK_ReadReg(R0)  returns 0x00000000 (0001ms, 0955ms total)
T9AFC 001:874 JLINK_WriteReg(R0, 0x00000001)  returns 0x00 (0001ms, 0956ms total)
T9AFC 001:875 JLINK_WriteReg(R1, 0x00002000)  returns 0x00 (0000ms, 0956ms total)
T9AFC 001:875 JLINK_WriteReg(R2, 0x000000FF)  returns 0x00 (0000ms, 0956ms total)
T9AFC 001:875 JLINK_WriteReg(R3, 0x00000000)  returns 0x00 (0000ms, 0956ms total)
T9AFC 001:875 JLINK_WriteReg(R4, 0x00000000)  returns 0x00 (0000ms, 0956ms total)
T9AFC 001:875 JLINK_WriteReg(R5, 0x00000000)  returns 0x00 (0000ms, 0956ms total)
T9AFC 001:875 JLINK_WriteReg(R6, 0x00000000)  returns 0x00 (0000ms, 0956ms total)
T9AFC 001:875 JLINK_WriteReg(R7, 0x00000000)  returns 0x00 (0000ms, 0956ms total)
T9AFC 001:875 JLINK_WriteReg(R8, 0x00000000)  returns 0x00 (0001ms, 0957ms total)
T9AFC 001:876 JLINK_WriteReg(R9, 0x100002A4)  returns 0x00 (0000ms, 0957ms total)
T9AFC 001:876 JLINK_WriteReg(R10, 0x00000000)  returns 0x00 (0000ms, 0957ms total)
T9AFC 001:876 JLINK_WriteReg(R11, 0x00000000)  returns 0x00 (0000ms, 0957ms total)
T9AFC 001:876 JLINK_WriteReg(R12, 0x00000000)  returns 0x00 (0000ms, 0957ms total)
T9AFC 001:876 JLINK_WriteReg(R13 (SP), 0x10000800)  returns 0x00 (0000ms, 0957ms total)
T9AFC 001:876 JLINK_WriteReg(R14, 0x10000001)  returns 0x00 (0000ms, 0957ms total)
T9AFC 001:876 JLINK_WriteReg(R15 (PC), 0x10000098)  returns 0x00 (0001ms, 0958ms total)
T9AFC 001:877 JLINK_WriteReg(XPSR, 0x01000000)  returns 0x00 (0000ms, 0958ms total)
T9AFC 001:877 JLINK_WriteReg(MSP, 0x10000800)  returns 0x00 (0000ms, 0958ms total)
T9AFC 001:877 JLINK_WriteReg(PSP, 0x10000800)  returns 0x00 (0000ms, 0958ms total)
T9AFC 001:877 JLINK_WriteReg(CFBP, 0x00000000)  returns 0x00 (0000ms, 0958ms total)
T9AFC 001:877 JLINK_SetBPEx(Addr = 0x10000000, Type = 0xFFFFFFF2)  returns 0x0000000A (0000ms, 0958ms total)
T9AFC 001:877 JLINK_Go() (0003ms, 0961ms total)
T9AFC 001:880 JLINK_IsHalted()  returns TRUE (0005ms, 0966ms total)
T9AFC 001:885 JLINK_ReadReg(R15 (PC))  returns 0x10000000 (0000ms, 0961ms total)
T9AFC 001:885 JLINK_ClrBPEx(BPHandle = 0x0000000A)  returns 0x00 (0000ms, 0961ms total)
T9AFC 001:885 JLINK_ReadReg(R0)  returns 0x00000000 (0000ms, 0961ms total)
T9AFC 001:947 JLINK_WriteMem(0x10000000, 0x02B4 Bytes, ...) -- Data:  00 BE 0A E0 0D 78 2D 06 68 40 08 24 40 00 00 D3 ... -- CPU_WriteMem(692 bytes @ 0x10000000)  returns 0x2B4 (0005ms, 0966ms total)
T9AFC 001:952 JLINK_WriteReg(R0, 0x1A000000)  returns 0x00 (0001ms, 0967ms total)
T9AFC 001:953 JLINK_WriteReg(R1, 0x00B71B00)  returns 0x00 (0000ms, 0967ms total)
T9AFC 001:953 JLINK_WriteReg(R2, 0x00000002)  returns 0x00 (0000ms, 0967ms total)
T9AFC 001:953 JLINK_WriteReg(R3, 0x00000000)  returns 0x00 (0000ms, 0967ms total)
T9AFC 001:953 JLINK_WriteReg(R4, 0x00000000)  returns 0x00 (0000ms, 0967ms total)
T9AFC 001:953 JLINK_WriteReg(R5, 0x00000000)  returns 0x00 (0000ms, 0967ms total)
T9AFC 001:953 JLINK_WriteReg(R6, 0x00000000)  returns 0x00 (0001ms, 0968ms total)
T9AFC 001:954 JLINK_WriteReg(R7, 0x00000000)  returns 0x00 (0000ms, 0968ms total)
T9AFC 001:954 JLINK_WriteReg(R8, 0x00000000)  returns 0x00 (0000ms, 0968ms total)
T9AFC 001:954 JLINK_WriteReg(R9, 0x100002A4)  returns 0x00 (0000ms, 0968ms total)
T9AFC 001:954 JLINK_WriteReg(R10, 0x00000000)  returns 0x00 (0000ms, 0968ms total)
T9AFC 001:955 JLINK_WriteReg(R11, 0x00000000)  returns 0x00 (0000ms, 0969ms total)
T9AFC 001:955 JLINK_WriteReg(R12, 0x00000000)  returns 0x00 (0000ms, 0969ms total)
T9AFC 001:955 JLINK_WriteReg(R13 (SP), 0x10000800)  returns 0x00 (0000ms, 0969ms total)
T9AFC 001:955 JLINK_WriteReg(R14, 0x10000001)  returns 0x00 (0000ms, 0969ms total)
T9AFC 001:955 JLINK_WriteReg(R15 (PC), 0x10000046)  returns 0x00 (0000ms, 0969ms total)
T9AFC 001:955 JLINK_WriteReg(XPSR, 0x01000000)  returns 0x00 (0001ms, 0970ms total)
T9AFC 001:956 JLINK_WriteReg(MSP, 0x10000800)  returns 0x00 (0000ms, 0970ms total)
T9AFC 001:956 JLINK_WriteReg(PSP, 0x10000800)  returns 0x00 (0000ms, 0970ms total)
T9AFC 001:956 JLINK_WriteReg(CFBP, 0x00000000)  returns 0x00 (0000ms, 0970ms total)
T9AFC 001:956 JLINK_SetBPEx(Addr = 0x10000000, Type = 0xFFFFFFF2)  returns 0x0000000B (0000ms, 0970ms total)
T9AFC 001:956 JLINK_Go() (0003ms, 0973ms total)
T9AFC 001:959 JLINK_IsHalted()  returns TRUE (0005ms, 0978ms total)
T9AFC 001:964 JLINK_ReadReg(R15 (PC))  returns 0x10000000 (0000ms, 0973ms total)
T9AFC 001:964 JLINK_ClrBPEx(BPHandle = 0x0000000B)  returns 0x00 (0000ms, 0973ms total)
T9AFC 001:964 JLINK_ReadReg(R0)  returns 0x00000000 (0000ms, 0973ms total)
T9AFC 001:965 JLINK_WriteMem(0x100002E0, 0x0400 Bytes, ...) -- Data:  90 69 00 10 29 01 00 1A 2D 01 00 1A 2F 01 00 1A ... -- CPU_WriteMem(1024 bytes @ 0x100002E0)  returns 0x400 (0007ms, 0980ms total)
T9AFC 001:972 JLINK_WriteReg(R0, 0x1A000000)  returns 0x00 (0000ms, 0980ms total)
T9AFC 001:972 JLINK_WriteReg(R1, 0x00000400)  returns 0x00 (0000ms, 0980ms total)
T9AFC 001:972 JLINK_WriteReg(R2, 0x100002E0)  returns 0x00 (0000ms, 0980ms total)
T9AFC 001:972 JLINK_WriteReg(R3, 0x00000000)  returns 0x00 (0000ms, 0980ms total)
T9AFC 001:972 JLINK_WriteReg(R4, 0x00000000)  returns 0x00 (0000ms, 0980ms total)
T9AFC 001:972 JLINK_WriteReg(R5, 0x00000000)  returns 0x00 (0001ms, 0981ms total)
T9AFC 001:973 JLINK_WriteReg(R6, 0x00000000)  returns 0x00 (0000ms, 0981ms total)
T9AFC 001:973 JLINK_WriteReg(R7, 0x00000000)  returns 0x00 (0000ms, 0981ms total)
T9AFC 001:973 JLINK_WriteReg(R8, 0x00000000)  returns 0x00 (0000ms, 0981ms total)
T9AFC 001:973 JLINK_WriteReg(R9, 0x100002A4)  returns 0x00 (0000ms, 0981ms total)
T9AFC 001:973 JLINK_WriteReg(R10, 0x00000000)  returns 0x00 (0000ms, 0981ms total)
T9AFC 001:973 JLINK_WriteReg(R11, 0x00000000)  returns 0x00 (0000ms, 0981ms total)
T9AFC 001:973 JLINK_WriteReg(R12, 0x00000000)  returns 0x00 (0000ms, 0981ms total)
T9AFC 001:973 JLINK_WriteReg(R13 (SP), 0x10000800)  returns 0x00 (0000ms, 0981ms total)
T9AFC 001:973 JLINK_WriteReg(R14, 0x10000001)  returns 0x00 (0001ms, 0982ms total)
T9AFC 001:974 JLINK_WriteReg(R15 (PC), 0x1000013A)  returns 0x00 (0000ms, 0982ms total)
T9AFC 001:974 JLINK_WriteReg(XPSR, 0x01000000)  returns 0x00 (0000ms, 0982ms total)
T9AFC 001:974 JLINK_WriteReg(MSP, 0x10000800)  returns 0x00 (0000ms, 0982ms total)
T9AFC 001:974 JLINK_WriteReg(PSP, 0x10000800)  returns 0x00 (0000ms, 0982ms total)
T9AFC 001:974 JLINK_WriteReg(CFBP, 0x00000000)  returns 0x00 (0000ms, 0982ms total)
T9AFC 001:974 JLINK_SetBPEx(Addr = 0x10000000, Type = 0xFFFFFFF2)  returns 0x0000000C (0001ms, 0983ms total)
T9AFC 001:975 JLINK_Go() (0002ms, 0985ms total)
T9AFC 001:977 JLINK_IsHalted()  returns FALSE (0001ms, 0986ms total)
T9AFC 002:016 JLINK_IsHalted()  returns TRUE (0005ms, 0990ms total)
T9AFC 002:021 JLINK_ReadReg(R15 (PC))  returns 0x10000000 (0000ms, 0985ms total)
T9AFC 002:021 JLINK_ClrBPEx(BPHandle = 0x0000000C)  returns 0x00 (0001ms, 0986ms total)
T9AFC 002:022 JLINK_ReadReg(R0)  returns 0x00000000 (0000ms, 0986ms total)
T9AFC 002:023 JLINK_WriteMem(0x100002E0, 0x0400 Bytes, ...) -- Data:  01 23 CD E9 05 20 04 93 07 90 87 20 40 F2 DF 11 ... -- CPU_WriteMem(1024 bytes @ 0x100002E0)  returns 0x400 (0007ms, 0993ms total)
T9AFC 002:030 JLINK_WriteReg(R0, 0x1A000400)  returns 0x00 (0001ms, 0994ms total)
T9AFC 002:031 JLINK_WriteReg(R1, 0x00000400)  returns 0x00 (0000ms, 0994ms total)
T9AFC 002:031 JLINK_WriteReg(R2, 0x100002E0)  returns 0x00 (0000ms, 0994ms total)
T9AFC 002:032 JLINK_WriteReg(R3, 0x00000000)  returns 0x00 (0000ms, 0995ms total)
T9AFC 002:032 JLINK_WriteReg(R4, 0x00000000)  returns 0x00 (0000ms, 0995ms total)
T9AFC 002:032 JLINK_WriteReg(R5, 0x00000000)  returns 0x00 (0000ms, 0995ms total)
T9AFC 002:032 JLINK_WriteReg(R6, 0x00000000)  returns 0x00 (0000ms, 0995ms total)
T9AFC 002:032 JLINK_WriteReg(R7, 0x00000000)  returns 0x00 (0000ms, 0995ms total)
T9AFC 002:032 JLINK_WriteReg(R8, 0x00000000)  returns 0x00 (0000ms, 0995ms total)
T9AFC 002:032 JLINK_WriteReg(R9, 0x100002A4)  returns 0x00 (0000ms, 0995ms total)
T9AFC 002:032 JLINK_WriteReg(R10, 0x00000000)  returns 0x00 (0000ms, 0995ms total)
T9AFC 002:032 JLINK_WriteReg(R11, 0x00000000)  returns 0x00 (0000ms, 0995ms total)
T9AFC 002:032 JLINK_WriteReg(R12, 0x00000000)  returns 0x00 (0001ms, 0996ms total)
T9AFC 002:033 JLINK_WriteReg(R13 (SP), 0x10000800)  returns 0x00 (0000ms, 0996ms total)
T9AFC 002:033 JLINK_WriteReg(R14, 0x10000001)  returns 0x00 (0000ms, 0996ms total)
T9AFC 002:033 JLINK_WriteReg(R15 (PC), 0x1000013A)  returns 0x00 (0000ms, 0996ms total)
T9AFC 002:033 JLINK_WriteReg(XPSR, 0x01000000)  returns 0x00 (0000ms, 0996ms total)
T9AFC 002:033 JLINK_WriteReg(MSP, 0x10000800)  returns 0x00 (0000ms, 0996ms total)
T9AFC 002:033 JLINK_WriteReg(PSP, 0x10000800)  returns 0x00 (0000ms, 0996ms total)
T9AFC 002:033 JLINK_WriteReg(CFBP, 0x00000000)  returns 0x00 (0000ms, 0996ms total)
T9AFC 002:033 JLINK_SetBPEx(Addr = 0x10000000, Type = 0xFFFFFFF2)  returns 0x0000000D (0000ms, 0996ms total)
T9AFC 002:033 JLINK_Go() (0003ms, 0999ms total)
T9AFC 002:036 JLINK_IsHalted()  returns FALSE (0001ms, 1000ms total)
T9AFC 002:042 JLINK_IsHalted()  returns TRUE (0005ms, 1004ms total)
T9AFC 002:047 JLINK_ReadReg(R15 (PC))  returns 0x10000000 (0000ms, 0999ms total)
T9AFC 002:047 JLINK_ClrBPEx(BPHandle = 0x0000000D)  returns 0x00 (0000ms, 0999ms total)
T9AFC 002:047 JLINK_ReadReg(R0)  returns 0x00000000 (0000ms, 0999ms total)
T9AFC 002:048 JLINK_WriteMem(0x100002E0, 0x0400 Bytes, ...) -- Data:  02 23 00 22 19 46 0B 20 02 F0 8E F8 02 23 00 22 ... -- CPU_WriteMem(1024 bytes @ 0x100002E0)  returns 0x400 (0007ms, 1006ms total)
T9AFC 002:055 JLINK_WriteReg(R0, 0x1A000800)  returns 0x00 (0000ms, 1006ms total)
T9AFC 002:055 JLINK_WriteReg(R1, 0x00000400)  returns 0x00 (0000ms, 1006ms total)
T9AFC 002:055 JLINK_WriteReg(R2, 0x100002E0)  returns 0x00 (0001ms, 1007ms total)
T9AFC 002:056 JLINK_WriteReg(R3, 0x00000000)  returns 0x00 (0000ms, 1007ms total)
T9AFC 002:056 JLINK_WriteReg(R4, 0x00000000)  returns 0x00 (0000ms, 1007ms total)
T9AFC 002:056 JLINK_WriteReg(R5, 0x00000000)  returns 0x00 (0000ms, 1007ms total)
T9AFC 002:056 JLINK_WriteReg(R6, 0x00000000)  returns 0x00 (0000ms, 1007ms total)
T9AFC 002:056 JLINK_WriteReg(R7, 0x00000000)  returns 0x00 (0001ms, 1008ms total)
T9AFC 002:057 JLINK_WriteReg(R8, 0x00000000)  returns 0x00 (0000ms, 1008ms total)
T9AFC 002:057 JLINK_WriteReg(R9, 0x100002A4)  returns 0x00 (0000ms, 1008ms total)
T9AFC 002:057 JLINK_WriteReg(R10, 0x00000000)  returns 0x00 (0000ms, 1008ms total)
T9AFC 002:057 JLINK_WriteReg(R11, 0x00000000)  returns 0x00 (0000ms, 1008ms total)
T9AFC 002:057 JLINK_WriteReg(R12, 0x00000000)  returns 0x00 (0000ms, 1008ms total)
T9AFC 002:057 JLINK_WriteReg(R13 (SP), 0x10000800)  returns 0x00 (0001ms, 1009ms total)
T9AFC 002:058 JLINK_WriteReg(R14, 0x10000001)  returns 0x00 (0000ms, 1009ms total)
T9AFC 002:058 JLINK_WriteReg(R15 (PC), 0x1000013A)  returns 0x00 (0000ms, 1009ms total)
T9AFC 002:058 JLINK_WriteReg(XPSR, 0x01000000)  returns 0x00 (0000ms, 1009ms total)
T9AFC 002:058 JLINK_WriteReg(MSP, 0x10000800)  returns 0x00 (0000ms, 1009ms total)
T9AFC 002:058 JLINK_WriteReg(PSP, 0x10000800)  returns 0x00 (0000ms, 1009ms total)
T9AFC 002:058 JLINK_WriteReg(CFBP, 0x00000000)  returns 0x00 (0001ms, 1010ms total)
T9AFC 002:059 JLINK_SetBPEx(Addr = 0x10000000, Type = 0xFFFFFFF2)  returns 0x0000000E (0000ms, 1010ms total)
T9AFC 002:059 JLINK_Go() (0002ms, 1012ms total)
T9AFC 002:061 JLINK_IsHalted()  returns FALSE (0001ms, 1013ms total)
T9AFC 002:071 JLINK_IsHalted()  returns TRUE (0004ms, 1016ms total)
T9AFC 002:075 JLINK_ReadReg(R15 (PC))  returns 0x10000000 (0001ms, 1013ms total)
T9AFC 002:076 JLINK_ClrBPEx(BPHandle = 0x0000000E)  returns 0x00 (0000ms, 1013ms total)
T9AFC 002:076 JLINK_ReadReg(R0)  returns 0x00000000 (0000ms, 1013ms total)
T9AFC 002:077 JLINK_WriteMem(0x100002E0, 0x0400 Bytes, ...) -- Data:  49 48 05 68 04 60 06 A8 00 90 00 99 05 98 FF F7 ... -- CPU_WriteMem(1024 bytes @ 0x100002E0)  returns 0x400 (0007ms, 1020ms total)
T9AFC 002:084 JLINK_WriteReg(R0, 0x1A000C00)  returns 0x00 (0000ms, 1020ms total)
T9AFC 002:084 JLINK_WriteReg(R1, 0x00000400)  returns 0x00 (0000ms, 1020ms total)
T9AFC 002:084 JLINK_WriteReg(R2, 0x100002E0)  returns 0x00 (0000ms, 1020ms total)
T9AFC 002:085 JLINK_WriteReg(R3, 0x00000000)  returns 0x00 (0000ms, 1021ms total)
T9AFC 002:085 JLINK_WriteReg(R4, 0x00000000)  returns 0x00 (0000ms, 1021ms total)
T9AFC 002:085 JLINK_WriteReg(R5, 0x00000000)  returns 0x00 (0000ms, 1021ms total)
T9AFC 002:085 JLINK_WriteReg(R6, 0x00000000)  returns 0x00 (0000ms, 1021ms total)
T9AFC 002:085 JLINK_WriteReg(R7, 0x00000000)  returns 0x00 (0000ms, 1021ms total)
T9AFC 002:085 JLINK_WriteReg(R8, 0x00000000)  returns 0x00 (0000ms, 1021ms total)
T9AFC 002:085 JLINK_WriteReg(R9, 0x100002A4)  returns 0x00 (0001ms, 1022ms total)
T9AFC 002:086 JLINK_WriteReg(R10, 0x00000000)  returns 0x00 (0000ms, 1022ms total)
T9AFC 002:086 JLINK_WriteReg(R11, 0x00000000)  returns 0x00 (0000ms, 1022ms total)
T9AFC 002:086 JLINK_WriteReg(R12, 0x00000000)  returns 0x00 (0000ms, 1022ms total)
T9AFC 002:086 JLINK_WriteReg(R13 (SP), 0x10000800)  returns 0x00 (0000ms, 1022ms total)
T9AFC 002:086 JLINK_WriteReg(R14, 0x10000001)  returns 0x00 (0000ms, 1022ms total)
T9AFC 002:087 JLINK_WriteReg(R15 (PC), 0x1000013A)  returns 0x00 (0000ms, 1023ms total)
T9AFC 002:087 JLINK_WriteReg(XPSR, 0x01000000)  returns 0x00 (0000ms, 1023ms total)
T9AFC 002:087 JLINK_WriteReg(MSP, 0x10000800)  returns 0x00 (0000ms, 1023ms total)
T9AFC 002:087 JLINK_WriteReg(PSP, 0x10000800)  returns 0x00 (0000ms, 1023ms total)
T9AFC 002:087 JLINK_WriteReg(CFBP, 0x00000000)  returns 0x00 (0000ms, 1023ms total)
T9AFC 002:087 JLINK_SetBPEx(Addr = 0x10000000, Type = 0xFFFFFFF2)  returns 0x0000000F (0000ms, 1023ms total)
T9AFC 002:087 JLINK_Go() (0003ms, 1026ms total)
T9AFC 002:090 JLINK_IsHalted()  returns FALSE (0001ms, 1027ms total)
T9AFC 002:098 JLINK_IsHalted()  returns TRUE (0005ms, 1031ms total)
T9AFC 002:103 JLINK_ReadReg(R15 (PC))  returns 0x10000000 (0000ms, 1026ms total)
T9AFC 002:103 JLINK_ClrBPEx(BPHandle = 0x0000000F)  returns 0x00 (0000ms, 1026ms total)
T9AFC 002:103 JLINK_ReadReg(R0)  returns 0x00000000 (0001ms, 1027ms total)
T9AFC 002:105 JLINK_WriteMem(0x100002E0, 0x0400 Bytes, ...) -- Data:  6D 1C 55 45 D4 DB 17 98 01 28 03 D1 20 46 15 99 ... -- CPU_WriteMem(1024 bytes @ 0x100002E0)  returns 0x400 (0007ms, 1034ms total)
T9AFC 002:112 JLINK_WriteReg(R0, 0x1A001000)  returns 0x00 (0000ms, 1034ms total)
T9AFC 002:113 JLINK_WriteReg(R1, 0x00000400)  returns 0x00 (0000ms, 1034ms total)
T9AFC 002:113 JLINK_WriteReg(R2, 0x100002E0)  returns 0x00 (0000ms, 1034ms total)
T9AFC 002:113 JLINK_WriteReg(R3, 0x00000000)  returns 0x00 (0000ms, 1034ms total)
T9AFC 002:113 JLINK_WriteReg(R4, 0x00000000)  returns 0x00 (0000ms, 1034ms total)
T9AFC 002:113 JLINK_WriteReg(R5, 0x00000000)  returns 0x00 (0000ms, 1034ms total)
T9AFC 002:113 JLINK_WriteReg(R6, 0x00000000)  returns 0x00 (0000ms, 1034ms total)
T9AFC 002:113 JLINK_WriteReg(R7, 0x00000000)  returns 0x00 (0001ms, 1035ms total)
T9AFC 002:114 JLINK_WriteReg(R8, 0x00000000)  returns 0x00 (0000ms, 1035ms total)
T9AFC 002:114 JLINK_WriteReg(R9, 0x100002A4)  returns 0x00 (0000ms, 1035ms total)
T9AFC 002:114 JLINK_WriteReg(R10, 0x00000000)  returns 0x00 (0000ms, 1035ms total)
T9AFC 002:114 JLINK_WriteReg(R11, 0x00000000)  returns 0x00 (0000ms, 1035ms total)
T9AFC 002:115 JLINK_WriteReg(R12, 0x00000000)  returns 0x00 (0000ms, 1036ms total)
T9AFC 002:115 JLINK_WriteReg(R13 (SP), 0x10000800)  returns 0x00 (0000ms, 1036ms total)
T9AFC 002:115 JLINK_WriteReg(R14, 0x10000001)  returns 0x00 (0000ms, 1036ms total)
T9AFC 002:115 JLINK_WriteReg(R15 (PC), 0x1000013A)  returns 0x00 (0000ms, 1036ms total)
T9AFC 002:115 JLINK_WriteReg(XPSR, 0x01000000)  returns 0x00 (0000ms, 1036ms total)
T9AFC 002:115 JLINK_WriteReg(MSP, 0x10000800)  returns 0x00 (0000ms, 1036ms total)
T9AFC 002:115 JLINK_WriteReg(PSP, 0x10000800)  returns 0x00 (0001ms, 1037ms total)
T9AFC 002:116 JLINK_WriteReg(CFBP, 0x00000000)  returns 0x00 (0000ms, 1037ms total)
T9AFC 002:116 JLINK_SetBPEx(Addr = 0x10000000, Type = 0xFFFFFFF2)  returns 0x00000010 (0000ms, 1037ms total)
T9AFC 002:116 JLINK_Go() (0002ms, 1039ms total)
T9AFC 002:118 JLINK_IsHalted()  returns FALSE (0001ms, 1040ms total)
T9AFC 002:130 JLINK_IsHalted()  returns TRUE (0005ms, 1044ms total)
T9AFC 002:135 JLINK_ReadReg(R15 (PC))  returns 0x10000000 (0000ms, 1039ms total)
T9AFC 002:135 JLINK_ClrBPEx(BPHandle = 0x00000010)  returns 0x00 (0000ms, 1039ms total)
T9AFC 002:135 JLINK_ReadReg(R0)  returns 0x00000000 (0000ms, 1039ms total)
T9AFC 002:136 JLINK_WriteMem(0x100002E0, 0x0400 Bytes, ...) -- Data:  20 46 DD E9 0C 23 FF F7 8D FD 09 90 01 20 01 E0 ... -- CPU_WriteMem(1024 bytes @ 0x100002E0)  returns 0x400 (0007ms, 1046ms total)
